
TA668 000:553 SEGGER J-Link V4.92 Log File (0001ms, 0534ms total)
TA668 000:553 DLL Compiled: Sep 30 2014 09:33:42 (0001ms, 0534ms total)
TA668 000:553 Logging started @ 2014-12-11 11:44 (0001ms, 0534ms total)
TA668 000:554 JLINK_SetWarnOutHandler(...) (0000ms, 0534ms total)
TA668 000:554 JLINK_OpenEx(...)
Firmware: J-Link Lite-Cortex-M V8 compiled Jul 17 2014 11:40:12
Hardware: V8.00
S/N: 518108182
Feature(s): GDB  returns O.K. (0267ms, 0801ms total)
TA668 000:821 JLINK_SetErrorOutHandler(...) (0000ms, 0801ms total)
TA668 000:821 JLINK_ExecCommand("ProjectFile = "C:\Users\nikol_000\Dropbox\IBS\Powermeter\nrf51422\Board\nrf6310\spi_master_example\arm\JLinkSettings.ini"", ...)  returns 0x00 (0003ms, 0804ms total)
TA668 000:824 JLINK_ExecCommand("Device = nRF51822_xxAA", ...)Device "NRF51822_XXAA" selected (257 KB flash, 16 KB RAM).  returns 0x00 (0003ms, 0807ms total)
TA668 000:827 JLINK_ExecCommand("DisableConnectionTimeout", ...)  returns 0x01 (0000ms, 0808ms total)
TA668 000:828 JLINK_GetHardwareVersion()  returns 0x13880 (0000ms, 0808ms total)
TA668 000:828 JLINK_GetDLLVersion()  returns 49200 (0000ms, 0808ms total)
TA668 000:828 JLINK_GetFirmwareString(...) (0000ms, 0808ms total)
TA668 000:830 JLINK_GetDLLVersion()  returns 49200 (0000ms, 0808ms total)
TA668 000:830 JLINK_GetCompileDateTime() (0000ms, 0808ms total)
TA668 000:832 JLINK_GetFirmwareString(...) (0000ms, 0808ms total)
TA668 000:833 JLINK_GetHardwareVersion()  returns 0x13880 (0000ms, 0808ms total)
TA668 000:836 JLINK_TIF_Select(JLINKARM_TIF_SWD)  returns 0x00 (0003ms, 0811ms total)
TA668 000:839 JLINK_SetSpeed(2000) (0001ms, 0812ms total)
TA668 000:840 JLINK_GetId() >0x108 TIF>Found SWD-DP with ID 0x0BB11477 >0x35 TIF> >0x0D TIF> >0x28 TIF> >0x0D TIF> >0x28 TIF> >0x35 TIF> >0x0D TIF> >0x28 TIF> >0x35 TIF> >0x35 TIF> >0x35 TIF> >0x0D TIF> >0x28 TIF> >0x0D TIF> >0x28 TIF> >0x0D TIF> >0x28 TIF> >0x35 TIF> >0x35 TIF> >0x35 TIF> >0x0D TIF> >0x28 TIF> >0x0D TIF> >0x28 TIF> >0x35 TIF> >0x0D TIF> >0x28 TIF> >0x0D TIF> >0x28 TIF> >0x0D TIF> >0x28 TIF> >0x35 TIF> >0x35 TIF> >0x0D TIF> >0x28 TIF> >0x35 TIF> >0x35 TIF>
Found Cortex-M0 r0p0, Little endian. -- CPU_WriteMem(4 bytes @ 0xE0002000) -- CPU_ReadMem(4 bytes @ 0xE000EDF0) -- CPU_ReadMem(4 bytes @ 0xE0002000)FPUnit: 4 code (BP) slots and 0 literal slots -- CPU_ReadMem(4 bytes @ 0xE000EDFC) -- CPU_ReadMem(4 bytes @ 0xE0001000) -- CPU_WriteMem(4 bytes @ 0xE0001000) -- CPU_ReadMem(4 bytes @ 0xE00FF018) >0x35 TIF>  returns 0x0BB11477 (0037ms, 0849ms total)
TA668 000:877 JLINK_GetDeviceFamily()  returns 6 (0000ms, 0849ms total)
TA668 000:878 JLINK_ReadMem (0xE00FFFF0, 0x0010 Bytes, ...) -- CPU is running -- CPU_ReadMem(16 bytes @ 0xE00FFFF0) - Data: 0D 00 00 00 10 00 00 00 05 00 00 00 B1 00 00 00  returns 0x00 (0001ms, 0850ms total)
TA668 000:879 JLINK_ReadMem (0xE00FFFD0, 0x0020 Bytes, ...) -- CPU is running -- CPU_ReadMem(32 bytes @ 0xE00FFFD0) - Data: 04 00 00 00 00 00 00 00 00 00 00 00 00 00 00 00 ...  returns 0x00 (0001ms, 0851ms total)
TA668 000:880 JLINK_ReadMem (0xE00FF000, 0x0018 Bytes, ...) -- CPU is running -- CPU_ReadMem(24 bytes @ 0xE00FF000) - Data: 03 F0 F0 FF 03 20 F0 FF 03 30 F0 FF 00 00 00 00 ...  returns 0x00 (0001ms, 0852ms total)
TA668 000:881 JLINK_ReadMemU32(0xE000ED00, 0x0001 Items, ...) -- CPU is running -- CPU_ReadMem(4 bytes @ 0xE000ED00) - Data: 00 C2 0C 41  returns 0x01 (0001ms, 0853ms total)
TA668 000:882 JLINK_SetResetType(JLINKARM_RESET_TYPE_NORMAL)  returns JLINKARM_RESET_TYPE_NORMAL (0000ms, 0853ms total)
TA668 000:882 JLINK_Reset() -- CPU is running -- CPU_WriteMem(4 bytes @ 0xE000EDF0) -- CPU is running -- CPU_WriteMem(4 bytes @ 0xE000EDFC) >0x35 TIF> -- CPU is running -- CPU_WriteMem(4 bytes @ 0xE000ED0C) -- CPU is running -- CPU_ReadMem(4 bytes @ 0xE000EDF0) -- CPU is running -- CPU_ReadMem(4 bytes @ 0xE000EDF0) -- CPU is running -- CPU_WriteMem(4 bytes @ 0xE000EDF0) -- CPU is running -- CPU_WriteMem(4 bytes @ 0xE000EDFC) -- CPU is running -- CPU_ReadMem(4 bytes @ 0xE000EDF0)
 -- CPU_WriteMem(4 bytes @ 0xE0002000) -- CPU_ReadMem(4 bytes @ 0xE000EDFC) -- CPU_ReadMem(4 bytes @ 0xE0001000) -- CPU_WriteMem(4 bytes @ 0xE0001000) (0025ms, 0878ms total)
TA668 000:907 JLINK_ReadReg(R15 (PC))  returns 0x00000388 (0000ms, 0878ms total)
TA668 000:907 JLINK_ReadReg(XPSR)  returns 0xC1000000 (0000ms, 0878ms total)
TA668 000:907 JLINK_Halt()  returns 0x00 (0000ms, 0878ms total)
TA668 000:907 JLINK_IsHalted()  returns TRUE (0000ms, 0878ms total)
TA668 000:908 JLINK_ReadMemU32(0xE000EDF0, 0x0001 Items, ...) -- CPU_ReadMem(4 bytes @ 0xE000EDF0) - Data: 03 00 03 00  returns 0x01 (0000ms, 0878ms total)
TA668 000:908 JLINK_WriteU32(0xE000EDF0, 0xA05F0003) -- CPU_WriteMem(4 bytes @ 0xE000EDF0)  returns 0x00 (0001ms, 0879ms total)
TA668 000:909 JLINK_WriteU32(0xE000EDFC, 0x01000000) -- CPU_WriteMem(4 bytes @ 0xE000EDFC)  returns 0x00 (0001ms, 0880ms total)
TA668 000:911 JLINK_GetHWStatus(...)  returns 0x00 (0000ms, 0880ms total)
TA668 000:912 JLINK_GetNumBPUnits(Type = 0xFFFFFF00)  returns 0x04 (0000ms, 0880ms total)
TA668 000:912 JLINK_GetNumBPUnits(Type = 0xF0)  returns 0x2000 (0000ms, 0880ms total)
TA668 000:912 JLINK_GetNumWPUnits()  returns 0x02 (0000ms, 0880ms total)
TA668 000:912 JLINK_GetSpeed()  returns 0x7D0 (0000ms, 0880ms total)
TA668 000:913 JLINK_ReadMemU32(0xE000E004, 0x0001 Items, ...) -- CPU_ReadMem(4 bytes @ 0xE000E004) - Data: 00 00 00 00  returns 0x01 (0001ms, 0881ms total)
TA668 000:914 JLINK_ReadReg(R15 (PC))  returns 0x00000388 (0000ms, 0881ms total)
TA668 000:914 JLINK_ReadReg(XPSR)  returns 0xC1000000 (0000ms, 0881ms total)
TA668 000:994 JLINK_SetResetType(JLINKARM_RESET_TYPE_NORMAL)  returns JLINKARM_RESET_TYPE_NORMAL (0000ms, 0881ms total)
TA668 000:994 JLINK_Reset() -- CPU_WriteMem(4 bytes @ 0xE000EDF0) -- CPU_WriteMem(4 bytes @ 0xE000EDFC) >0x35 TIF> -- CPU_WriteMem(4 bytes @ 0xE000ED0C) -- CPU_ReadMem(4 bytes @ 0xE000EDF0) -- CPU_ReadMem(4 bytes @ 0xE000EDF0) -- CPU_WriteMem(4 bytes @ 0xE000EDF0) -- CPU_WriteMem(4 bytes @ 0xE000EDFC) -- CPU is running -- CPU_ReadMem(4 bytes @ 0xE000EDF0) -- CPU_WriteMem(4 bytes @ 0xE0002000) -- CPU_ReadMem(4 bytes @ 0xE000EDFC) -- CPU_ReadMem(4 bytes @ 0xE0001000) -- CPU_WriteMem(4 bytes @ 0xE0001000)
 (0027ms, 0908ms total)
TA668 001:021 JLINK_ReadReg(R15 (PC))  returns 0x00000388 (0000ms, 0908ms total)
TA668 001:021 JLINK_ReadReg(XPSR)  returns 0xC1000000 (0000ms, 0908ms total)
TA668 001:026 JLINK_ReadMem (0x00000388, 0x003C Bytes, ...) -- CPU_ReadMem(128 bytes @ 0x00000380) -- Updating C cache (128 bytes @ 0x00000380) -- Read from C cache (60 bytes @ 0x00000388) - Data: 03 21 0C 48 02 68 0A 43 02 60 0B 48 02 68 0A 43 ...  returns 0x00 (0002ms, 0910ms total)
TA668 002:155 JLINK_ReadMem (0x00000000, 0x02AE Bytes, ...) -- CPU_ReadMem(704 bytes @ 0x00000000) -- Updating C cache (704 bytes @ 0x00000000) -- Read from C cache (686 bytes @ 0x00000000) - Data: 30 11 00 20 89 03 00 00 A3 03 00 00 A5 03 00 00 ...  returns 0x00 (0009ms, 0919ms total)
TA668 003:223 JLINK_ReadMem (0x20000013, 0x0001 Bytes, ...) -- CPU_ReadMem(64 bytes @ 0x20000000) -- Updating C cache (64 bytes @ 0x20000000) -- Read from C cache (1 bytes @ 0x20000013) - Data: 48  returns 0x00 (0002ms, 0921ms total)
TA668 003:236 JLINK_ReadMem (0x20000002, 0x0002 Bytes, ...) -- Read from C cache (2 bytes @ 0x20000002) - Data: E7 67  returns 0x00 (0000ms, 0921ms total)
TA668 003:246 JLINK_ReadMem (0x20000008, 0x0004 Bytes, ...) -- Read from C cache (4 bytes @ 0x20000008) - Data: 59 70 AB 3F  returns 0x00 (0000ms, 0921ms total)
TA970 003:342 JLINK_SetBPEx(Addr = 0x00000218, Type = 0xFFFFFFF2)  returns 0x00000001 (0000ms, 0921ms total)
TA970 003:342 JLINK_SetBPEx(Addr = 0x000002B0, Type = 0xFFFFFFF2)  returns 0x00000002 (0000ms, 0921ms total)
TA970 003:342 JLINK_Go() -- CPU_WriteMem(4 bytes @ 0xE0002000) -- CPU_WriteMem(4 bytes @ 0xE0002008) -- CPU_WriteMem(4 bytes @ 0xE0002000) -- CPU_WriteMem(4 bytes @ 0xE000200C) -- CPU_WriteMem(4 bytes @ 0xE0002010) -- CPU_WriteMem(4 bytes @ 0xE0002014) -- CPU_WriteMem(4 bytes @ 0xE0001004) (0007ms, 0928ms total)
TA970 003:450 JLINK_IsHalted()  returns TRUE (0004ms, 0932ms total)
TA970 003:454 JLINK_Halt()  returns 0x00 (0000ms, 0928ms total)
TA970 003:454 JLINK_IsHalted()  returns TRUE (0000ms, 0928ms total)
TA970 003:454 JLINK_IsHalted()  returns TRUE (0000ms, 0928ms total)
TA970 003:454 JLINK_IsHalted()  returns TRUE (0000ms, 0928ms total)
TA970 003:454 JLINK_ReadReg(R15 (PC))  returns 0x00000218 (0000ms, 0928ms total)
TA970 003:454 JLINK_ReadReg(XPSR)  returns 0x01000000 (0000ms, 0928ms total)
TA970 003:454 JLINK_ClrBPEx(BPHandle = 0x00000001)  returns 0x00 (0000ms, 0928ms total)
TA970 003:454 JLINK_ClrBPEx(BPHandle = 0x00000002)  returns 0x00 (0000ms, 0928ms total)
TA970 003:454 JLINK_ReadMemU32(0xE000ED30, 0x0001 Items, ...) -- CPU_ReadMem(4 bytes @ 0xE000ED30) - Data: 03 00 00 00  returns 0x01 (0001ms, 0929ms total)
TA970 003:455 JLINK_ReadMemU32(0xE0001028, 0x0001 Items, ...) -- CPU_ReadMem(4 bytes @ 0xE0001028) - Data: 00 00 00 00  returns 0x01 (0001ms, 0930ms total)
TA970 003:456 JLINK_ReadMemU32(0xE0001038, 0x0001 Items, ...) -- CPU_ReadMem(4 bytes @ 0xE0001038) - Data: 00 00 00 00  returns 0x01 (0001ms, 0931ms total)
TA970 003:457 JLINK_ReadReg(R0)  returns 0x20000130 (0000ms, 0931ms total)
TA970 003:457 JLINK_ReadReg(R1)  returns 0x20000930 (0000ms, 0931ms total)
TA970 003:457 JLINK_ReadReg(R2)  returns 0x20000930 (0000ms, 0931ms total)
TA970 003:457 JLINK_ReadReg(R3)  returns 0x20000930 (0000ms, 0931ms total)
TA970 003:457 JLINK_ReadReg(R4)  returns 0x00001CF4 (0000ms, 0931ms total)
TA970 003:457 JLINK_ReadReg(R5)  returns 0x200000D0 (0000ms, 0931ms total)
TA970 003:457 JLINK_ReadReg(R6)  returns 0x00000000 (0000ms, 0931ms total)
TA970 003:457 JLINK_ReadReg(R7)  returns 0x00000000 (0000ms, 0931ms total)
TA970 003:457 JLINK_ReadReg(R8)  returns 0xFFFFFFFF (0000ms, 0931ms total)
TA970 003:457 JLINK_ReadReg(R9)  returns 0xFFFFFFFF (0000ms, 0931ms total)
TA970 003:457 JLINK_ReadReg(R10)  returns 0x00001CF4 (0000ms, 0931ms total)
TA970 003:457 JLINK_ReadReg(R11)  returns 0x00001CF4 (0000ms, 0931ms total)
TA970 003:457 JLINK_ReadReg(R12)  returns 0xFFFFFFFF (0000ms, 0931ms total)
TA970 003:457 JLINK_ReadReg(R13 (SP))  returns 0x20001130 (0000ms, 0931ms total)
TA970 003:457 JLINK_ReadReg(R14)  returns 0x00000153 (0000ms, 0931ms total)
TA970 003:457 JLINK_ReadReg(R15 (PC))  returns 0x00000218 (0000ms, 0931ms total)
TA970 003:457 JLINK_ReadReg(XPSR)  returns 0x01000000 (0000ms, 0931ms total)
TA970 003:457 JLINK_ReadReg(MSP)  returns 0x20001130 (0000ms, 0931ms total)
TA970 003:457 JLINK_ReadReg(PSP)  returns 0xFFFFFFFC (0000ms, 0931ms total)
TA970 003:457 JLINK_ReadReg(CFBP)  returns 0x00000000 (0000ms, 0931ms total)
TA668 003:459 JLINK_ReadMem (0x20000042, 0x0014 Bytes, ...) -- CPU_ReadMem(64 bytes @ 0x20000040) -- Updating C cache (64 bytes @ 0x20000040) -- Read from C cache (20 bytes @ 0x20000042) - Data: 00 00 00 00 00 00 00 00 00 00 00 00 00 00 00 00 ...  returns 0x00 (0001ms, 0932ms total)
TA668 003:470 JLINK_ReadMem (0x20000013, 0x0001 Bytes, ...) -- CPU_ReadMem(64 bytes @ 0x20000000) -- Updating C cache (64 bytes @ 0x20000000) -- Read from C cache (1 bytes @ 0x20000013) - Data: 00  returns 0x00 (0002ms, 0934ms total)
TA668 003:473 JLINK_ReadMem (0x20000002, 0x0002 Bytes, ...) -- Read from C cache (2 bytes @ 0x20000002) - Data: 00 00  returns 0x00 (0000ms, 0934ms total)
TA668 003:473 JLINK_ReadMem (0x20000008, 0x0004 Bytes, ...) -- Read from C cache (4 bytes @ 0x20000008) - Data: 00 00 00 00  returns 0x00 (0000ms, 0934ms total)
TA668 003:483 JLINK_ReadMem (0x00000218, 0x003C Bytes, ...) -- CPU_ReadMem(128 bytes @ 0x00000200) -- Updating C cache (128 bytes @ 0x00000200) -- Read from C cache (60 bytes @ 0x00000218) - Data: 1C B5 1C 20 00 F0 84 F8 1D 20 00 F0 81 F8 0A 20 ...  returns 0x00 (0003ms, 0937ms total)
TA970 004:375 JLINK_SetBPEx(Addr = 0x000002B0, Type = 0xFFFFFFF2)  returns 0x00000003 (0000ms, 0937ms total)
TA970 004:375 JLINK_Go() -- CPU_WriteMem(4 bytes @ 0xE0002000) -- CPU_WriteMem(4 bytes @ 0xE0002008) -- CPU_WriteMem(4 bytes @ 0xE000200C) (0004ms, 0941ms total)
TA970 004:480 JLINK_IsHalted()  returns TRUE (0004ms, 0945ms total)
TA970 004:484 JLINK_Halt()  returns 0x00 (0000ms, 0941ms total)
TA970 004:484 JLINK_IsHalted()  returns TRUE (0000ms, 0941ms total)
TA970 004:484 JLINK_IsHalted()  returns TRUE (0000ms, 0941ms total)
TA970 004:484 JLINK_IsHalted()  returns TRUE (0000ms, 0941ms total)
TA970 004:484 JLINK_ReadReg(R15 (PC))  returns 0x000002B0 (0000ms, 0941ms total)
TA970 004:484 JLINK_ReadReg(XPSR)  returns 0x01000000 (0000ms, 0941ms total)
TA970 004:484 JLINK_ClrBPEx(BPHandle = 0x00000003)  returns 0x00 (0000ms, 0941ms total)
TA970 004:484 JLINK_ReadMemU32(0xE000ED30, 0x0001 Items, ...) -- CPU_ReadMem(4 bytes @ 0xE000ED30) - Data: 03 00 00 00  returns 0x01 (0001ms, 0942ms total)
TA970 004:485 JLINK_ReadMemU32(0xE0001028, 0x0001 Items, ...) -- CPU_ReadMem(4 bytes @ 0xE0001028) - Data: 00 00 00 00  returns 0x01 (0001ms, 0943ms total)
TA970 004:486 JLINK_ReadMemU32(0xE0001038, 0x0001 Items, ...) -- CPU_ReadMem(4 bytes @ 0xE0001038) - Data: 00 00 00 00  returns 0x01 (0000ms, 0943ms total)
TA970 004:486 JLINK_ReadReg(R0)  returns 0x3FABA1D9 (0001ms, 0944ms total)
TA970 004:487 JLINK_ReadReg(R1)  returns 0x20000008 (0000ms, 0944ms total)
TA970 004:487 JLINK_ReadReg(R2)  returns 0x0000007F (0000ms, 0944ms total)
TA970 004:487 JLINK_ReadReg(R3)  returns 0x15D0ECB7 (0000ms, 0944ms total)
TA970 004:487 JLINK_ReadReg(R4)  returns 0x46D00A00 (0000ms, 0944ms total)
TA970 004:487 JLINK_ReadReg(R5)  returns 0x200000D0 (0000ms, 0944ms total)
TA970 004:487 JLINK_ReadReg(R6)  returns 0x00000000 (0000ms, 0944ms total)
TA970 004:487 JLINK_ReadReg(R7)  returns 0x00000000 (0000ms, 0944ms total)
TA970 004:487 JLINK_ReadReg(R8)  returns 0xFFFFFFFF (0000ms, 0944ms total)
TA970 004:487 JLINK_ReadReg(R9)  returns 0xFFFFFFFF (0000ms, 0944ms total)
TA970 004:487 JLINK_ReadReg(R10)  returns 0x00001CF4 (0000ms, 0944ms total)
TA970 004:487 JLINK_ReadReg(R11)  returns 0x00001CF4 (0000ms, 0944ms total)
TA970 004:487 JLINK_ReadReg(R12)  returns 0xFFFFFFFF (0000ms, 0944ms total)
TA970 004:487 JLINK_ReadReg(R13 (SP))  returns 0x20001120 (0000ms, 0944ms total)
TA970 004:487 JLINK_ReadReg(R14)  returns 0x000002AD (0000ms, 0944ms total)
TA970 004:487 JLINK_ReadReg(R15 (PC))  returns 0x000002B0 (0000ms, 0944ms total)
TA970 004:487 JLINK_ReadReg(XPSR)  returns 0x01000000 (0000ms, 0944ms total)
TA970 004:487 JLINK_ReadReg(MSP)  returns 0x20001120 (0000ms, 0944ms total)
TA970 004:487 JLINK_ReadReg(PSP)  returns 0xFFFFFFFC (0000ms, 0944ms total)
TA970 004:487 JLINK_ReadReg(CFBP)  returns 0x00000000 (0000ms, 0944ms total)
TA668 004:487 JLINK_ReadMem (0x2000112C, 0x0004 Bytes, ...) -- CPU_ReadMem(64 bytes @ 0x20001100) -- Updating C cache (64 bytes @ 0x20001100) -- Read from C cache (4 bytes @ 0x2000112C) - Data: 53 01 00 00  returns 0x00 (0002ms, 0946ms total)
TA668 004:490 JLINK_ReadMem (0x20000042, 0x0014 Bytes, ...) -- CPU_ReadMem(64 bytes @ 0x20000040) -- Updating C cache (64 bytes @ 0x20000040) -- Read from C cache (20 bytes @ 0x20000042) - Data: 00 00 00 00 00 00 00 00 00 00 00 00 00 00 00 00 ...  returns 0x00 (0002ms, 0948ms total)
TA668 004:493 JLINK_ReadMem (0x20000013, 0x0001 Bytes, ...) -- CPU_ReadMem(64 bytes @ 0x20000000) -- Updating C cache (64 bytes @ 0x20000000) -- Read from C cache (1 bytes @ 0x20000013) - Data: 48  returns 0x00 (0001ms, 0949ms total)
TA668 004:495 JLINK_ReadMem (0x20000002, 0x0002 Bytes, ...) -- Read from C cache (2 bytes @ 0x20000002) - Data: 05 68  returns 0x00 (0000ms, 0949ms total)
TA668 004:495 JLINK_ReadMem (0x20000008, 0x0004 Bytes, ...) -- Read from C cache (4 bytes @ 0x20000008) - Data: D9 A1 AB 3F  returns 0x00 (0000ms, 0949ms total)
TA668 004:496 JLINK_ReadMem (0x000002B0, 0x003C Bytes, ...) -- CPU_ReadMem(128 bytes @ 0x00000280) -- Updating C cache (128 bytes @ 0x00000280) -- Read from C cache (60 bytes @ 0x000002B0) - Data: 01 F0 29 F8 2B 49 08 80 08 46 00 88 01 F0 1C FC ...  returns 0x00 (0003ms, 0952ms total)
TA970 005:159 JLINK_Step() -- Read from C cache (2 bytes @ 0x000002B0) -- CPU_ReadMem(4 bytes @ 0xE0001004) -- Read from C cache (2 bytes @ 0x000002B2) -- Simulated  returns 0x00 (0002ms, 0954ms total)
TA970 005:161 JLINK_ReadReg(R15 (PC))  returns 0x00001306 (0000ms, 0954ms total)
TA970 005:161 JLINK_ReadReg(XPSR)  returns 0x01000000 (0000ms, 0954ms total)
TA970 005:161 JLINK_SetBPEx(Addr = 0x000002B0, Type = 0xFFFFFFF2)  returns 0x00000004 (0000ms, 0954ms total)
TA970 005:161 JLINK_Go() -- CPU_WriteMem(4 bytes @ 0xE0002000) -- CPU_WriteMem(4 bytes @ 0xE0001004) (0004ms, 0958ms total)
TA970 005:266 JLINK_IsHalted()  returns FALSE (0000ms, 0958ms total)
TA970 005:367 JLINK_IsHalted()  returns FALSE (0000ms, 0958ms total)
TA970 005:468 JLINK_IsHalted()  returns FALSE (0001ms, 0959ms total)
TA970 005:570 JLINK_IsHalted()  returns TRUE (0003ms, 0961ms total)
TA970 005:574 JLINK_Halt()  returns 0x00 (0000ms, 0958ms total)
TA970 005:574 JLINK_IsHalted()  returns TRUE (0000ms, 0958ms total)
TA970 005:574 JLINK_IsHalted()  returns TRUE (0000ms, 0958ms total)
TA970 005:574 JLINK_IsHalted()  returns TRUE (0000ms, 0958ms total)
TA970 005:574 JLINK_ReadReg(R15 (PC))  returns 0x000002B0 (0000ms, 0958ms total)
TA970 005:574 JLINK_ReadReg(XPSR)  returns 0x01000000 (0000ms, 0958ms total)
TA970 005:574 JLINK_ClrBPEx(BPHandle = 0x00000004)  returns 0x00 (0000ms, 0958ms total)
TA970 005:574 JLINK_ReadMemU32(0xE000ED30, 0x0001 Items, ...) -- CPU_ReadMem(4 bytes @ 0xE000ED30) - Data: 03 00 00 00  returns 0x01 (0001ms, 0959ms total)
TA970 005:575 JLINK_ReadMemU32(0xE0001028, 0x0001 Items, ...) -- CPU_ReadMem(4 bytes @ 0xE0001028) - Data: 00 00 00 00  returns 0x01 (0000ms, 0959ms total)
TA970 005:575 JLINK_ReadMemU32(0xE0001038, 0x0001 Items, ...) -- CPU_ReadMem(4 bytes @ 0xE0001038) - Data: 00 00 00 00  returns 0x01 (0001ms, 0960ms total)
TA970 005:576 JLINK_ReadReg(R0)  returns 0x3FAB94A6 (0000ms, 0960ms total)
TA970 005:576 JLINK_ReadReg(R1)  returns 0x20000008 (0000ms, 0960ms total)
TA970 005:576 JLINK_ReadReg(R2)  returns 0x0000007F (0000ms, 0960ms total)
TA970 005:576 JLINK_ReadReg(R3)  returns 0x15CA531E (0000ms, 0960ms total)
TA970 005:576 JLINK_ReadReg(R4)  returns 0x46CFFA00 (0001ms, 0961ms total)
TA970 005:577 JLINK_ReadReg(R5)  returns 0x200000D0 (0000ms, 0961ms total)
TA970 005:577 JLINK_ReadReg(R6)  returns 0x999999A0 (0000ms, 0961ms total)
TA970 005:577 JLINK_ReadReg(R7)  returns 0x00000000 (0000ms, 0961ms total)
TA970 005:577 JLINK_ReadReg(R8)  returns 0xFFFFFFFF (0000ms, 0961ms total)
TA970 005:577 JLINK_ReadReg(R9)  returns 0xFFFFFFFF (0000ms, 0961ms total)
TA970 005:577 JLINK_ReadReg(R10)  returns 0x00001CF4 (0000ms, 0961ms total)
TA970 005:577 JLINK_ReadReg(R11)  returns 0x00001CF4 (0000ms, 0961ms total)
TA970 005:577 JLINK_ReadReg(R12)  returns 0x00000000 (0000ms, 0961ms total)
TA970 005:577 JLINK_ReadReg(R13 (SP))  returns 0x20001120 (0000ms, 0961ms total)
TA970 005:577 JLINK_ReadReg(R14)  returns 0x000002AD (0000ms, 0961ms total)
TA970 005:577 JLINK_ReadReg(R15 (PC))  returns 0x000002B0 (0000ms, 0961ms total)
TA970 005:577 JLINK_ReadReg(XPSR)  returns 0x01000000 (0000ms, 0961ms total)
TA970 005:577 JLINK_ReadReg(MSP)  returns 0x20001120 (0000ms, 0961ms total)
TA970 005:577 JLINK_ReadReg(PSP)  returns 0xFFFFFFFC (0000ms, 0961ms total)
TA970 005:577 JLINK_ReadReg(CFBP)  returns 0x00000000 (0000ms, 0961ms total)
TA668 005:580 JLINK_ReadMem (0x2000112C, 0x0004 Bytes, ...) -- CPU_ReadMem(64 bytes @ 0x20001100) -- Updating C cache (64 bytes @ 0x20001100) -- Read from C cache (4 bytes @ 0x2000112C) - Data: 53 01 00 00  returns 0x00 (0001ms, 0962ms total)
TA668 005:581 JLINK_ReadMem (0x20000042, 0x0014 Bytes, ...) -- CPU_ReadMem(64 bytes @ 0x20000040) -- Updating C cache (64 bytes @ 0x20000040) -- Read from C cache (20 bytes @ 0x20000042) - Data: 00 00 00 00 00 00 00 00 00 00 00 00 00 00 00 00 ...  returns 0x00 (0002ms, 0964ms total)
TA668 005:584 JLINK_ReadMem (0x20000013, 0x0001 Bytes, ...) -- CPU_ReadMem(64 bytes @ 0x20000000) -- Updating C cache (64 bytes @ 0x20000000) -- Read from C cache (1 bytes @ 0x20000013) - Data: 48  returns 0x00 (0001ms, 0965ms total)
TA668 005:586 JLINK_ReadMem (0x20000002, 0x0002 Bytes, ...) -- Read from C cache (2 bytes @ 0x20000002) - Data: FD 67  returns 0x00 (0000ms, 0965ms total)
TA668 005:586 JLINK_ReadMem (0x20000008, 0x0004 Bytes, ...) -- Read from C cache (4 bytes @ 0x20000008) - Data: A6 94 AB 3F  returns 0x00 (0000ms, 0965ms total)
TA970 005:983 JLINK_Step() -- CPU_ReadMem(64 bytes @ 0x00000280) -- Updating C cache (64 bytes @ 0x00000280) -- Read from C cache (2 bytes @ 0x000002B0) -- CPU_ReadMem(4 bytes @ 0xE0001004) -- Read from C cache (2 bytes @ 0x000002B2) -- Simulated  returns 0x00 (0003ms, 0968ms total)
TA970 005:986 JLINK_ReadReg(R15 (PC))  returns 0x00001306 (0000ms, 0968ms total)
TA970 005:986 JLINK_ReadReg(XPSR)  returns 0x01000000 (0000ms, 0968ms total)
TA970 005:986 JLINK_SetBPEx(Addr = 0x000002B0, Type = 0xFFFFFFF2)  returns 0x00000005 (0000ms, 0968ms total)
TA970 005:986 JLINK_Go() -- CPU_WriteMem(4 bytes @ 0xE0002000) -- CPU_WriteMem(4 bytes @ 0xE0001004) (0003ms, 0971ms total)
TA970 006:091 JLINK_IsHalted()  returns FALSE (0000ms, 0972ms total)
TA970 006:192 JLINK_IsHalted()  returns FALSE (0000ms, 0972ms total)
TA970 006:293 JLINK_IsHalted()  returns FALSE (0000ms, 0972ms total)
TA970 006:394 JLINK_IsHalted()  returns TRUE (0004ms, 0976ms total)
TA970 006:398 JLINK_Halt()  returns 0x00 (0000ms, 0972ms total)
TA970 006:398 JLINK_IsHalted()  returns TRUE (0000ms, 0972ms total)
TA970 006:398 JLINK_IsHalted()  returns TRUE (0000ms, 0972ms total)
TA970 006:398 JLINK_IsHalted()  returns TRUE (0000ms, 0972ms total)
TA970 006:398 JLINK_ReadReg(R15 (PC))  returns 0x000002B0 (0000ms, 0972ms total)
TA970 006:398 JLINK_ReadReg(XPSR)  returns 0x01000000 (0000ms, 0972ms total)
TA970 006:398 JLINK_ClrBPEx(BPHandle = 0x00000005)  returns 0x00 (0000ms, 0972ms total)
TA970 006:398 JLINK_ReadMemU32(0xE000ED30, 0x0001 Items, ...) -- CPU_ReadMem(4 bytes @ 0xE000ED30) - Data: 03 00 00 00  returns 0x01 (0001ms, 0973ms total)
TA970 006:399 JLINK_ReadMemU32(0xE0001028, 0x0001 Items, ...) -- CPU_ReadMem(4 bytes @ 0xE0001028) - Data: 00 00 00 00  returns 0x01 (0000ms, 0973ms total)
TA970 006:399 JLINK_ReadMemU32(0xE0001038, 0x0001 Items, ...) -- CPU_ReadMem(4 bytes @ 0xE0001038) - Data: 00 00 00 00  returns 0x01 (0001ms, 0974ms total)
TA970 006:400 JLINK_ReadReg(R0)  returns 0x3FABA033 (0000ms, 0974ms total)
TA970 006:400 JLINK_ReadReg(R1)  returns 0x20000008 (0000ms, 0974ms total)
TA970 006:400 JLINK_ReadReg(R2)  returns 0x0000007F (0000ms, 0974ms total)
TA970 006:400 JLINK_ReadReg(R3)  returns 0x15D01984 (0000ms, 0974ms total)
TA970 006:400 JLINK_ReadReg(R4)  returns 0x46D00800 (0000ms, 0974ms total)
TA970 006:400 JLINK_ReadReg(R5)  returns 0x200000D0 (0000ms, 0974ms total)
TA970 006:400 JLINK_ReadReg(R6)  returns 0x999999A0 (0000ms, 0974ms total)
TA970 006:400 JLINK_ReadReg(R7)  returns 0x00000000 (0001ms, 0975ms total)
TA970 006:401 JLINK_ReadReg(R8)  returns 0xFFFFFFFF (0000ms, 0975ms total)
TA970 006:401 JLINK_ReadReg(R9)  returns 0xFFFFFFFF (0000ms, 0975ms total)
TA970 006:401 JLINK_ReadReg(R10)  returns 0x00001CF4 (0000ms, 0975ms total)
TA970 006:401 JLINK_ReadReg(R11)  returns 0x00001CF4 (0000ms, 0975ms total)
TA970 006:401 JLINK_ReadReg(R12)  returns 0x00000000 (0000ms, 0975ms total)
TA970 006:401 JLINK_ReadReg(R13 (SP))  returns 0x20001120 (0000ms, 0975ms total)
TA970 006:401 JLINK_ReadReg(R14)  returns 0x000002AD (0000ms, 0975ms total)
TA970 006:401 JLINK_ReadReg(R15 (PC))  returns 0x000002B0 (0000ms, 0975ms total)
TA970 006:401 JLINK_ReadReg(XPSR)  returns 0x01000000 (0000ms, 0975ms total)
TA970 006:401 JLINK_ReadReg(MSP)  returns 0x20001120 (0000ms, 0975ms total)
TA970 006:401 JLINK_ReadReg(PSP)  returns 0xFFFFFFFC (0000ms, 0975ms total)
TA970 006:401 JLINK_ReadReg(CFBP)  returns 0x00000000 (0000ms, 0975ms total)
TA668 006:401 JLINK_ReadMem (0x2000112C, 0x0004 Bytes, ...) -- CPU_ReadMem(64 bytes @ 0x20001100) -- Updating C cache (64 bytes @ 0x20001100) -- Read from C cache (4 bytes @ 0x2000112C) - Data: 53 01 00 00  returns 0x00 (0002ms, 0977ms total)
TA668 006:403 JLINK_ReadMem (0x20000042, 0x0014 Bytes, ...) -- CPU_ReadMem(64 bytes @ 0x20000040) -- Updating C cache (64 bytes @ 0x20000040) -- Read from C cache (20 bytes @ 0x20000042) - Data: 00 00 00 00 00 00 00 00 00 00 00 00 00 00 00 00 ...  returns 0x00 (0002ms, 0979ms total)
TA668 006:405 JLINK_ReadMem (0x20000013, 0x0001 Bytes, ...) -- CPU_ReadMem(64 bytes @ 0x20000000) -- Updating C cache (64 bytes @ 0x20000000) -- Read from C cache (1 bytes @ 0x20000013) - Data: 48  returns 0x00 (0002ms, 0981ms total)
TA668 006:407 JLINK_ReadMem (0x20000002, 0x0002 Bytes, ...) -- Read from C cache (2 bytes @ 0x20000002) - Data: 04 68  returns 0x00 (0000ms, 0981ms total)
TA668 006:408 JLINK_ReadMem (0x20000008, 0x0004 Bytes, ...) -- Read from C cache (4 bytes @ 0x20000008) - Data: 33 A0 AB 3F  returns 0x00 (0000ms, 0981ms total)
TA970 006:807 JLINK_Step() -- CPU_ReadMem(64 bytes @ 0x00000280) -- Updating C cache (64 bytes @ 0x00000280) -- Read from C cache (2 bytes @ 0x000002B0) -- CPU_ReadMem(4 bytes @ 0xE0001004) -- Read from C cache (2 bytes @ 0x000002B2) -- Simulated  returns 0x00 (0004ms, 0985ms total)
TA970 006:811 JLINK_ReadReg(R15 (PC))  returns 0x00001306 (0000ms, 0985ms total)
TA970 006:811 JLINK_ReadReg(XPSR)  returns 0x01000000 (0000ms, 0985ms total)
TA970 006:811 JLINK_SetBPEx(Addr = 0x000002B0, Type = 0xFFFFFFF2)  returns 0x00000006 (0000ms, 0985ms total)
TA970 006:811 JLINK_Go() -- CPU_WriteMem(4 bytes @ 0xE0002000) -- CPU_WriteMem(4 bytes @ 0xE0001004) (0004ms, 0989ms total)
TA970 006:916 JLINK_IsHalted()  returns FALSE (0000ms, 0989ms total)
TA970 007:017 JLINK_IsHalted()  returns FALSE (0000ms, 0989ms total)
TA970 007:119 JLINK_IsHalted()  returns TRUE (0004ms, 0993ms total)
TA970 007:123 JLINK_Halt()  returns 0x00 (0000ms, 0989ms total)
TA970 007:123 JLINK_IsHalted()  returns TRUE (0000ms, 0989ms total)
TA970 007:123 JLINK_IsHalted()  returns TRUE (0000ms, 0989ms total)
TA970 007:123 JLINK_IsHalted()  returns TRUE (0000ms, 0989ms total)
TA970 007:123 JLINK_ReadReg(R15 (PC))  returns 0x000002B0 (0000ms, 0989ms total)
TA970 007:123 JLINK_ReadReg(XPSR)  returns 0x01000000 (0000ms, 0989ms total)
TA970 007:123 JLINK_ClrBPEx(BPHandle = 0x00000006)  returns 0x00 (0000ms, 0989ms total)
TA970 007:123 JLINK_ReadMemU32(0xE000ED30, 0x0001 Items, ...) -- CPU_ReadMem(4 bytes @ 0xE000ED30) - Data: 03 00 00 00  returns 0x01 (0001ms, 0990ms total)
TA970 007:124 JLINK_ReadMemU32(0xE0001028, 0x0001 Items, ...) -- CPU_ReadMem(4 bytes @ 0xE0001028) - Data: 00 00 00 00  returns 0x01 (0001ms, 0991ms total)
TA970 007:125 JLINK_ReadMemU32(0xE0001038, 0x0001 Items, ...) -- CPU_ReadMem(4 bytes @ 0xE0001038) - Data: 00 00 00 00  returns 0x01 (0001ms, 0992ms total)
TA970 007:126 JLINK_ReadReg(R0)  returns 0x3FAB7059 (0000ms, 0992ms total)
TA970 007:126 JLINK_ReadReg(R1)  returns 0x20000008 (0000ms, 0992ms total)
TA970 007:126 JLINK_ReadReg(R2)  returns 0x0000007F (0000ms, 0992ms total)
TA970 007:126 JLINK_ReadReg(R3)  returns 0x15B82CB8 (0000ms, 0992ms total)
TA970 007:126 JLINK_ReadReg(R4)  returns 0x46CFCE00 (0000ms, 0992ms total)
TA970 007:126 JLINK_ReadReg(R5)  returns 0x200000D0 (0000ms, 0992ms total)
TA970 007:126 JLINK_ReadReg(R6)  returns 0x999999A0 (0000ms, 0992ms total)
TA970 007:126 JLINK_ReadReg(R7)  returns 0x00000000 (0000ms, 0992ms total)
TA970 007:126 JLINK_ReadReg(R8)  returns 0xFFFFFFFF (0000ms, 0992ms total)
TA970 007:126 JLINK_ReadReg(R9)  returns 0xFFFFFFFF (0000ms, 0992ms total)
TA970 007:126 JLINK_ReadReg(R10)  returns 0x00001CF4 (0000ms, 0992ms total)
TA970 007:126 JLINK_ReadReg(R11)  returns 0x00001CF4 (0000ms, 0992ms total)
TA970 007:126 JLINK_ReadReg(R12)  returns 0x00000000 (0000ms, 0992ms total)
TA970 007:126 JLINK_ReadReg(R13 (SP))  returns 0x20001120 (0000ms, 0992ms total)
TA970 007:126 JLINK_ReadReg(R14)  returns 0x000002AD (0000ms, 0992ms total)
TA970 007:126 JLINK_ReadReg(R15 (PC))  returns 0x000002B0 (0000ms, 0992ms total)
TA970 007:126 JLINK_ReadReg(XPSR)  returns 0x01000000 (0000ms, 0992ms total)
TA970 007:126 JLINK_ReadReg(MSP)  returns 0x20001120 (0000ms, 0992ms total)
TA970 007:126 JLINK_ReadReg(PSP)  returns 0xFFFFFFFC (0000ms, 0992ms total)
TA970 007:126 JLINK_ReadReg(CFBP)  returns 0x00000000 (0000ms, 0992ms total)
TA668 007:127 JLINK_ReadMem (0x2000112C, 0x0004 Bytes, ...) -- CPU_ReadMem(64 bytes @ 0x20001100) -- Updating C cache (64 bytes @ 0x20001100) -- Read from C cache (4 bytes @ 0x2000112C) - Data: 53 01 00 00  returns 0x00 (0001ms, 0993ms total)
TA668 007:129 JLINK_ReadMem (0x20000042, 0x0014 Bytes, ...) -- CPU_ReadMem(64 bytes @ 0x20000040) -- Updating C cache (64 bytes @ 0x20000040) -- Read from C cache (20 bytes @ 0x20000042) - Data: 00 00 00 00 00 00 00 00 00 00 00 00 00 00 00 00 ...  returns 0x00 (0001ms, 0994ms total)
TA668 007:131 JLINK_ReadMem (0x20000013, 0x0001 Bytes, ...) -- CPU_ReadMem(64 bytes @ 0x20000000) -- Updating C cache (64 bytes @ 0x20000000) -- Read from C cache (1 bytes @ 0x20000013) - Data: 48  returns 0x00 (0002ms, 0996ms total)
TA668 007:133 JLINK_ReadMem (0x20000002, 0x0002 Bytes, ...) -- Read from C cache (2 bytes @ 0x20000002) - Data: E7 67  returns 0x00 (0000ms, 0996ms total)
TA668 007:134 JLINK_ReadMem (0x20000008, 0x0004 Bytes, ...) -- Read from C cache (4 bytes @ 0x20000008) - Data: 59 70 AB 3F  returns 0x00 (0000ms, 0996ms total)
TA970 007:703 JLINK_Step() -- CPU_ReadMem(64 bytes @ 0x00000280) -- Updating C cache (64 bytes @ 0x00000280) -- Read from C cache (2 bytes @ 0x000002B0) -- CPU_ReadMem(4 bytes @ 0xE0001004) -- Read from C cache (2 bytes @ 0x000002B2) -- Simulated  returns 0x00 (0004ms, 1000ms total)
TA970 007:707 JLINK_ReadReg(R15 (PC))  returns 0x00001306 (0000ms, 1000ms total)
TA970 007:707 JLINK_ReadReg(XPSR)  returns 0x01000000 (0000ms, 1000ms total)
TA970 007:707 JLINK_SetBPEx(Addr = 0x000002B0, Type = 0xFFFFFFF2)  returns 0x00000007 (0000ms, 1000ms total)
TA970 007:707 JLINK_Go() -- CPU_WriteMem(4 bytes @ 0xE0002000) -- CPU_WriteMem(4 bytes @ 0xE0001004) (0003ms, 1003ms total)
TA970 007:811 JLINK_IsHalted()  returns FALSE (0001ms, 1004ms total)
TA970 007:913 JLINK_IsHalted()  returns FALSE (0001ms, 1004ms total)
TA970 008:015 JLINK_IsHalted()  returns TRUE (0003ms, 1006ms total)
TA970 008:019 JLINK_Halt()  returns 0x00 (0000ms, 1003ms total)
TA970 008:019 JLINK_IsHalted()  returns TRUE (0000ms, 1003ms total)
TA970 008:019 JLINK_IsHalted()  returns TRUE (0000ms, 1003ms total)
TA970 008:019 JLINK_IsHalted()  returns TRUE (0000ms, 1003ms total)
TA970 008:019 JLINK_ReadReg(R15 (PC))  returns 0x000002B0 (0000ms, 1003ms total)
TA970 008:019 JLINK_ReadReg(XPSR)  returns 0x01000000 (0000ms, 1003ms total)
TA970 008:019 JLINK_ClrBPEx(BPHandle = 0x00000007)  returns 0x00 (0000ms, 1003ms total)
TA970 008:019 JLINK_ReadMemU32(0xE000ED30, 0x0001 Items, ...) -- CPU_ReadMem(4 bytes @ 0xE000ED30) - Data: 03 00 00 00  returns 0x01 (0001ms, 1004ms total)
TA970 008:020 JLINK_ReadMemU32(0xE0001028, 0x0001 Items, ...) -- CPU_ReadMem(4 bytes @ 0xE0001028) - Data: 00 00 00 00  returns 0x01 (0000ms, 1004ms total)
TA970 008:020 JLINK_ReadMemU32(0xE0001038, 0x0001 Items, ...) -- CPU_ReadMem(4 bytes @ 0xE0001038) - Data: 00 00 00 00  returns 0x01 (0001ms, 1005ms total)
TA970 008:021 JLINK_ReadReg(R0)  returns 0x3FAB754D (0000ms, 1005ms total)
TA970 008:021 JLINK_ReadReg(R1)  returns 0x20000008 (0000ms, 1005ms total)
TA970 008:021 JLINK_ReadReg(R2)  returns 0x0000007F (0001ms, 1006ms total)
TA970 008:022 JLINK_ReadReg(R3)  returns 0x15BAA651 (0000ms, 1006ms total)
TA970 008:022 JLINK_ReadReg(R4)  returns 0x46CFD400 (0000ms, 1006ms total)
TA970 008:022 JLINK_ReadReg(R5)  returns 0x200000D0 (0000ms, 1006ms total)
TA970 008:022 JLINK_ReadReg(R6)  returns 0x999999A0 (0000ms, 1006ms total)
TA970 008:022 JLINK_ReadReg(R7)  returns 0x00000000 (0000ms, 1006ms total)
TA970 008:022 JLINK_ReadReg(R8)  returns 0xFFFFFFFF (0000ms, 1006ms total)
TA970 008:022 JLINK_ReadReg(R9)  returns 0xFFFFFFFF (0000ms, 1006ms total)
TA970 008:022 JLINK_ReadReg(R10)  returns 0x00001CF4 (0000ms, 1006ms total)
TA970 008:022 JLINK_ReadReg(R11)  returns 0x00001CF4 (0000ms, 1006ms total)
TA970 008:022 JLINK_ReadReg(R12)  returns 0x00000000 (0000ms, 1006ms total)
TA970 008:022 JLINK_ReadReg(R13 (SP))  returns 0x20001120 (0000ms, 1006ms total)
TA970 008:022 JLINK_ReadReg(R14)  returns 0x000002AD (0000ms, 1006ms total)
TA970 008:022 JLINK_ReadReg(R15 (PC))  returns 0x000002B0 (0000ms, 1006ms total)
TA970 008:022 JLINK_ReadReg(XPSR)  returns 0x01000000 (0000ms, 1006ms total)
TA970 008:022 JLINK_ReadReg(MSP)  returns 0x20001120 (0000ms, 1006ms total)
TA970 008:022 JLINK_ReadReg(PSP)  returns 0xFFFFFFFC (0000ms, 1006ms total)
TA970 008:022 JLINK_ReadReg(CFBP)  returns 0x00000000 (0000ms, 1006ms total)
TA668 008:023 JLINK_ReadMem (0x2000112C, 0x0004 Bytes, ...) -- CPU_ReadMem(64 bytes @ 0x20001100) -- Updating C cache (64 bytes @ 0x20001100) -- Read from C cache (4 bytes @ 0x2000112C) - Data: 53 01 00 00  returns 0x00 (0001ms, 1007ms total)
TA668 008:024 JLINK_ReadMem (0x20000042, 0x0014 Bytes, ...) -- CPU_ReadMem(64 bytes @ 0x20000040) -- Updating C cache (64 bytes @ 0x20000040) -- Read from C cache (20 bytes @ 0x20000042) - Data: 00 00 00 00 00 00 00 00 00 00 00 00 00 00 00 00 ...  returns 0x00 (0002ms, 1009ms total)
TA668 008:026 JLINK_ReadMem (0x20000013, 0x0001 Bytes, ...) -- CPU_ReadMem(64 bytes @ 0x20000000) -- Updating C cache (64 bytes @ 0x20000000) -- Read from C cache (1 bytes @ 0x20000013) - Data: 48  returns 0x00 (0002ms, 1011ms total)
TA668 008:028 JLINK_ReadMem (0x20000002, 0x0002 Bytes, ...) -- Read from C cache (2 bytes @ 0x20000002) - Data: EA 67  returns 0x00 (0000ms, 1011ms total)
TA668 008:029 JLINK_ReadMem (0x20000008, 0x0004 Bytes, ...) -- Read from C cache (4 bytes @ 0x20000008) - Data: 4D 75 AB 3F  returns 0x00 (0000ms, 1011ms total)
TA970 008:441 JLINK_Step() -- CPU_ReadMem(64 bytes @ 0x00000280) -- Updating C cache (64 bytes @ 0x00000280) -- Read from C cache (2 bytes @ 0x000002B0) -- CPU_ReadMem(4 bytes @ 0xE0001004) -- Read from C cache (2 bytes @ 0x000002B2) -- Simulated  returns 0x00 (0002ms, 1013ms total)
TA970 008:443 JLINK_ReadReg(R15 (PC))  returns 0x00001306 (0000ms, 1013ms total)
TA970 008:443 JLINK_ReadReg(XPSR)  returns 0x01000000 (0000ms, 1013ms total)
TA970 008:443 JLINK_SetBPEx(Addr = 0x000002B0, Type = 0xFFFFFFF2)  returns 0x00000008 (0000ms, 1013ms total)
TA970 008:443 JLINK_Go() -- CPU_WriteMem(4 bytes @ 0xE0002000) -- CPU_WriteMem(4 bytes @ 0xE0001004) (0004ms, 1017ms total)
TA970 008:548 JLINK_IsHalted()  returns FALSE (0000ms, 1017ms total)
TA970 008:649 JLINK_IsHalted()  returns FALSE (0000ms, 1017ms total)
TA970 008:750 JLINK_IsHalted()  returns FALSE (0001ms, 1018ms total)
TA970 008:852 JLINK_IsHalted()  returns TRUE (0004ms, 1021ms total)
TA970 008:857 JLINK_Halt()  returns 0x00 (0000ms, 1017ms total)
TA970 008:857 JLINK_IsHalted()  returns TRUE (0000ms, 1017ms total)
TA970 008:857 JLINK_IsHalted()  returns TRUE (0000ms, 1017ms total)
TA970 008:857 JLINK_IsHalted()  returns TRUE (0000ms, 1017ms total)
TA970 008:857 JLINK_ReadReg(R15 (PC))  returns 0x000002B0 (0000ms, 1017ms total)
TA970 008:857 JLINK_ReadReg(XPSR)  returns 0x01000000 (0000ms, 1017ms total)
TA970 008:857 JLINK_ClrBPEx(BPHandle = 0x00000008)  returns 0x00 (0000ms, 1017ms total)
TA970 008:857 JLINK_ReadMemU32(0xE000ED30, 0x0001 Items, ...) -- CPU_ReadMem(4 bytes @ 0xE000ED30) - Data: 03 00 00 00  returns 0x01 (0001ms, 1018ms total)
TA970 008:858 JLINK_ReadMemU32(0xE0001028, 0x0001 Items, ...) -- CPU_ReadMem(4 bytes @ 0xE0001028) - Data: 00 00 00 00  returns 0x01 (0001ms, 1019ms total)
TA970 008:859 JLINK_ReadMemU32(0xE0001038, 0x0001 Items, ...) -- CPU_ReadMem(4 bytes @ 0xE0001038) - Data: 00 00 00 00  returns 0x01 (0001ms, 1020ms total)
TA970 008:861 JLINK_ReadReg(R0)  returns 0x3FAB8FB3 (0000ms, 1020ms total)
TA970 008:861 JLINK_ReadReg(R1)  returns 0x20000008 (0000ms, 1020ms total)
TA970 008:861 JLINK_ReadReg(R2)  returns 0x0000007F (0000ms, 1020ms total)
TA970 008:861 JLINK_ReadReg(R3)  returns 0x15C7D984 (0000ms, 1020ms total)
TA970 008:861 JLINK_ReadReg(R4)  returns 0x46CFF400 (0000ms, 1020ms total)
TA970 008:861 JLINK_ReadReg(R5)  returns 0x200000D0 (0000ms, 1020ms total)
TA970 008:861 JLINK_ReadReg(R6)  returns 0x999999A0 (0000ms, 1020ms total)
TA970 008:861 JLINK_ReadReg(R7)  returns 0x00000000 (0000ms, 1020ms total)
TA970 008:861 JLINK_ReadReg(R8)  returns 0xFFFFFFFF (0000ms, 1020ms total)
TA970 008:861 JLINK_ReadReg(R9)  returns 0xFFFFFFFF (0000ms, 1020ms total)
TA970 008:862 JLINK_ReadReg(R10)  returns 0x00001CF4 (0000ms, 1021ms total)
TA970 008:862 JLINK_ReadReg(R11)  returns 0x00001CF4 (0000ms, 1021ms total)
TA970 008:862 JLINK_ReadReg(R12)  returns 0x00000000 (0000ms, 1021ms total)
TA970 008:862 JLINK_ReadReg(R13 (SP))  returns 0x20001120 (0000ms, 1021ms total)
TA970 008:862 JLINK_ReadReg(R14)  returns 0x000002AD (0000ms, 1021ms total)
TA970 008:862 JLINK_ReadReg(R15 (PC))  returns 0x000002B0 (0000ms, 1021ms total)
TA970 008:862 JLINK_ReadReg(XPSR)  returns 0x01000000 (0000ms, 1021ms total)
TA970 008:862 JLINK_ReadReg(MSP)  returns 0x20001120 (0000ms, 1021ms total)
TA970 008:862 JLINK_ReadReg(PSP)  returns 0xFFFFFFFC (0000ms, 1021ms total)
TA970 008:862 JLINK_ReadReg(CFBP)  returns 0x00000000 (0000ms, 1021ms total)
TA668 008:866 JLINK_ReadMem (0x2000112C, 0x0004 Bytes, ...) -- CPU_ReadMem(64 bytes @ 0x20001100) -- Updating C cache (64 bytes @ 0x20001100) -- Read from C cache (4 bytes @ 0x2000112C) - Data: 53 01 00 00  returns 0x00 (0002ms, 1023ms total)
TA668 008:869 JLINK_ReadMem (0x20000042, 0x0014 Bytes, ...) -- CPU_ReadMem(64 bytes @ 0x20000040) -- Updating C cache (64 bytes @ 0x20000040) -- Read from C cache (20 bytes @ 0x20000042) - Data: 00 00 00 00 00 00 00 00 00 00 00 00 00 00 00 00 ...  returns 0x00 (0002ms, 1025ms total)
TA668 008:872 JLINK_ReadMem (0x20000013, 0x0001 Bytes, ...) -- CPU_ReadMem(64 bytes @ 0x20000000) -- Updating C cache (64 bytes @ 0x20000000) -- Read from C cache (1 bytes @ 0x20000013) - Data: 48  returns 0x00 (0002ms, 1027ms total)
TA668 008:874 JLINK_ReadMem (0x20000002, 0x0002 Bytes, ...) -- Read from C cache (2 bytes @ 0x20000002) - Data: FA 67  returns 0x00 (0000ms, 1027ms total)
TA668 008:876 JLINK_ReadMem (0x20000008, 0x0004 Bytes, ...) -- Read from C cache (4 bytes @ 0x20000008) - Data: B3 8F AB 3F  returns 0x00 (0000ms, 1027ms total)
TA970 009:168 JLINK_Step() -- CPU_ReadMem(64 bytes @ 0x00000280) -- Updating C cache (64 bytes @ 0x00000280) -- Read from C cache (2 bytes @ 0x000002B0) -- CPU_ReadMem(4 bytes @ 0xE0001004) -- Read from C cache (2 bytes @ 0x000002B2) -- Simulated  returns 0x00 (0003ms, 1030ms total)
TA970 009:171 JLINK_ReadReg(R15 (PC))  returns 0x00001306 (0000ms, 1030ms total)
TA970 009:171 JLINK_ReadReg(XPSR)  returns 0x01000000 (0000ms, 1030ms total)
TA970 009:171 JLINK_SetBPEx(Addr = 0x000002B0, Type = 0xFFFFFFF2)  returns 0x00000009 (0000ms, 1030ms total)
TA970 009:171 JLINK_Go() -- CPU_WriteMem(4 bytes @ 0xE0002000) -- CPU_WriteMem(4 bytes @ 0xE0001004) (0004ms, 1034ms total)
TA970 009:276 JLINK_IsHalted()  returns FALSE (0000ms, 1034ms total)
TA970 009:377 JLINK_IsHalted()  returns FALSE (0000ms, 1034ms total)
TA970 009:478 JLINK_IsHalted()  returns FALSE (0000ms, 1034ms total)
TA970 009:579 JLINK_IsHalted()  returns TRUE (0004ms, 1038ms total)
TA970 009:583 JLINK_Halt()  returns 0x00 (0000ms, 1034ms total)
TA970 009:583 JLINK_IsHalted()  returns TRUE (0000ms, 1034ms total)
TA970 009:583 JLINK_IsHalted()  returns TRUE (0000ms, 1034ms total)
TA970 009:583 JLINK_IsHalted()  returns TRUE (0000ms, 1034ms total)
TA970 009:583 JLINK_ReadReg(R15 (PC))  returns 0x000002B0 (0000ms, 1034ms total)
TA970 009:583 JLINK_ReadReg(XPSR)  returns 0x01000000 (0000ms, 1034ms total)
TA970 009:583 JLINK_ClrBPEx(BPHandle = 0x00000009)  returns 0x00 (0000ms, 1034ms total)
TA970 009:583 JLINK_ReadMemU32(0xE000ED30, 0x0001 Items, ...) -- CPU_ReadMem(4 bytes @ 0xE000ED30) - Data: 03 00 00 00  returns 0x01 (0001ms, 1035ms total)
TA970 009:584 JLINK_ReadMemU32(0xE0001028, 0x0001 Items, ...) -- CPU_ReadMem(4 bytes @ 0xE0001028) - Data: 00 00 00 00  returns 0x01 (0001ms, 1036ms total)
TA970 009:585 JLINK_ReadMemU32(0xE0001038, 0x0001 Items, ...) -- CPU_ReadMem(4 bytes @ 0xE0001038) - Data: 00 00 00 00  returns 0x01 (0001ms, 1037ms total)
TA970 009:586 JLINK_ReadReg(R0)  returns 0x3FAB8280 (0000ms, 1037ms total)
TA970 009:586 JLINK_ReadReg(R1)  returns 0x20000008 (0000ms, 1037ms total)
TA970 009:586 JLINK_ReadReg(R2)  returns 0x0000007F (0000ms, 1037ms total)
TA970 009:586 JLINK_ReadReg(R3)  returns 0x15C13FEB (0000ms, 1037ms total)
TA970 009:586 JLINK_ReadReg(R4)  returns 0x46CFE400 (0000ms, 1037ms total)
TA970 009:586 JLINK_ReadReg(R5)  returns 0x200000D0 (0000ms, 1037ms total)
TA970 009:586 JLINK_ReadReg(R6)  returns 0x999999A0 (0000ms, 1037ms total)
TA970 009:586 JLINK_ReadReg(R7)  returns 0x00000000 (0000ms, 1037ms total)
TA970 009:586 JLINK_ReadReg(R8)  returns 0xFFFFFFFF (0000ms, 1037ms total)
TA970 009:586 JLINK_ReadReg(R9)  returns 0xFFFFFFFF (0000ms, 1037ms total)
TA970 009:586 JLINK_ReadReg(R10)  returns 0x00001CF4 (0000ms, 1037ms total)
TA970 009:586 JLINK_ReadReg(R11)  returns 0x00001CF4 (0000ms, 1037ms total)
TA970 009:586 JLINK_ReadReg(R12)  returns 0x00000000 (0000ms, 1037ms total)
TA970 009:586 JLINK_ReadReg(R13 (SP))  returns 0x20001120 (0000ms, 1037ms total)
TA970 009:586 JLINK_ReadReg(R14)  returns 0x000002AD (0000ms, 1037ms total)
TA970 009:586 JLINK_ReadReg(R15 (PC))  returns 0x000002B0 (0000ms, 1037ms total)
TA970 009:586 JLINK_ReadReg(XPSR)  returns 0x01000000 (0000ms, 1037ms total)
TA970 009:586 JLINK_ReadReg(MSP)  returns 0x20001120 (0000ms, 1037ms total)
TA970 009:587 JLINK_ReadReg(PSP)  returns 0xFFFFFFFC (0000ms, 1038ms total)
TA970 009:587 JLINK_ReadReg(CFBP)  returns 0x00000000 (0000ms, 1038ms total)
TA668 009:587 JLINK_ReadMem (0x2000112C, 0x0004 Bytes, ...) -- CPU_ReadMem(64 bytes @ 0x20001100) -- Updating C cache (64 bytes @ 0x20001100) -- Read from C cache (4 bytes @ 0x2000112C) - Data: 53 01 00 00  returns 0x00 (0002ms, 1040ms total)
TA668 009:589 JLINK_ReadMem (0x20000042, 0x0014 Bytes, ...) -- CPU_ReadMem(64 bytes @ 0x20000040) -- Updating C cache (64 bytes @ 0x20000040) -- Read from C cache (20 bytes @ 0x20000042) - Data: 00 00 00 00 00 00 00 00 00 00 00 00 00 00 00 00 ...  returns 0x00 (0001ms, 1041ms total)
TA668 009:591 JLINK_ReadMem (0x20000013, 0x0001 Bytes, ...) -- CPU_ReadMem(64 bytes @ 0x20000000) -- Updating C cache (64 bytes @ 0x20000000) -- Read from C cache (1 bytes @ 0x20000013) - Data: 48  returns 0x00 (0002ms, 1043ms total)
TA668 009:593 JLINK_ReadMem (0x20000002, 0x0002 Bytes, ...) -- Read from C cache (2 bytes @ 0x20000002) - Data: F2 67  returns 0x00 (0000ms, 1043ms total)
TA668 009:593 JLINK_ReadMem (0x20000008, 0x0004 Bytes, ...) -- Read from C cache (4 bytes @ 0x20000008) - Data: 80 82 AB 3F  returns 0x00 (0001ms, 1044ms total)
TA970 009:960 JLINK_Step() -- CPU_ReadMem(64 bytes @ 0x00000280) -- Updating C cache (64 bytes @ 0x00000280) -- Read from C cache (2 bytes @ 0x000002B0) -- CPU_ReadMem(4 bytes @ 0xE0001004) -- Read from C cache (2 bytes @ 0x000002B2) -- Simulated  returns 0x00 (0003ms, 1047ms total)
TA970 009:963 JLINK_ReadReg(R15 (PC))  returns 0x00001306 (0000ms, 1047ms total)
TA970 009:963 JLINK_ReadReg(XPSR)  returns 0x01000000 (0000ms, 1047ms total)
TA970 009:963 JLINK_SetBPEx(Addr = 0x000002B0, Type = 0xFFFFFFF2)  returns 0x0000000A (0000ms, 1047ms total)
TA970 009:963 JLINK_Go() -- CPU_WriteMem(4 bytes @ 0xE0002000) -- CPU_WriteMem(4 bytes @ 0xE0001004) (0004ms, 1051ms total)
TA970 010:068 JLINK_IsHalted()  returns FALSE (0000ms, 1051ms total)
TA970 010:169 JLINK_IsHalted()  returns FALSE (0000ms, 1051ms total)
TA970 010:270 JLINK_IsHalted()  returns FALSE (0000ms, 1051ms total)
TA970 010:372 JLINK_IsHalted()  returns TRUE (0003ms, 1054ms total)
TA970 010:375 JLINK_Halt()  returns 0x00 (0000ms, 1051ms total)
TA970 010:376 JLINK_IsHalted()  returns TRUE (0000ms, 1052ms total)
TA970 010:376 JLINK_IsHalted()  returns TRUE (0000ms, 1052ms total)
TA970 010:376 JLINK_IsHalted()  returns TRUE (0000ms, 1052ms total)
TA970 010:376 JLINK_ReadReg(R15 (PC))  returns 0x000002B0 (0000ms, 1052ms total)
TA970 010:376 JLINK_ReadReg(XPSR)  returns 0x01000000 (0000ms, 1052ms total)
TA970 010:376 JLINK_ClrBPEx(BPHandle = 0x0000000A)  returns 0x00 (0000ms, 1052ms total)
TA970 010:376 JLINK_ReadMemU32(0xE000ED30, 0x0001 Items, ...) -- CPU_ReadMem(4 bytes @ 0xE000ED30) - Data: 03 00 00 00  returns 0x01 (0001ms, 1053ms total)
TA970 010:377 JLINK_ReadMemU32(0xE0001028, 0x0001 Items, ...) -- CPU_ReadMem(4 bytes @ 0xE0001028) - Data: 00 00 00 00  returns 0x01 (0000ms, 1053ms total)
TA970 010:377 JLINK_ReadMemU32(0xE0001038, 0x0001 Items, ...) -- CPU_ReadMem(4 bytes @ 0xE0001038) - Data: 00 00 00 00  returns 0x01 (0001ms, 1054ms total)
TA970 010:378 JLINK_ReadReg(R0)  returns 0x3FAB8AC0 (0000ms, 1054ms total)
TA970 010:378 JLINK_ReadReg(R1)  returns 0x20000008 (0000ms, 1054ms total)
TA970 010:378 JLINK_ReadReg(R2)  returns 0x0000007F (0000ms, 1054ms total)
TA970 010:378 JLINK_ReadReg(R3)  returns 0x15C55FEB (0000ms, 1054ms total)
TA970 010:378 JLINK_ReadReg(R4)  returns 0x46CFEE00 (0000ms, 1054ms total)
TA970 010:378 JLINK_ReadReg(R5)  returns 0x200000D0 (0001ms, 1055ms total)
TA970 010:379 JLINK_ReadReg(R6)  returns 0x999999A0 (0000ms, 1055ms total)
TA970 010:379 JLINK_ReadReg(R7)  returns 0x00000000 (0000ms, 1055ms total)
TA970 010:379 JLINK_ReadReg(R8)  returns 0xFFFFFFFF (0000ms, 1055ms total)
TA970 010:379 JLINK_ReadReg(R9)  returns 0xFFFFFFFF (0000ms, 1055ms total)
TA970 010:379 JLINK_ReadReg(R10)  returns 0x00001CF4 (0000ms, 1055ms total)
TA970 010:379 JLINK_ReadReg(R11)  returns 0x00001CF4 (0000ms, 1055ms total)
TA970 010:379 JLINK_ReadReg(R12)  returns 0x00000000 (0000ms, 1055ms total)
TA970 010:379 JLINK_ReadReg(R13 (SP))  returns 0x20001120 (0000ms, 1055ms total)
TA970 010:379 JLINK_ReadReg(R14)  returns 0x000002AD (0000ms, 1055ms total)
TA970 010:379 JLINK_ReadReg(R15 (PC))  returns 0x000002B0 (0000ms, 1055ms total)
TA970 010:379 JLINK_ReadReg(XPSR)  returns 0x01000000 (0000ms, 1055ms total)
TA970 010:379 JLINK_ReadReg(MSP)  returns 0x20001120 (0000ms, 1055ms total)
TA970 010:379 JLINK_ReadReg(PSP)  returns 0xFFFFFFFC (0000ms, 1055ms total)
TA970 010:379 JLINK_ReadReg(CFBP)  returns 0x00000000 (0000ms, 1055ms total)
TA668 010:379 JLINK_ReadMem (0x2000112C, 0x0004 Bytes, ...) -- CPU_ReadMem(64 bytes @ 0x20001100) -- Updating C cache (64 bytes @ 0x20001100) -- Read from C cache (4 bytes @ 0x2000112C) - Data: 53 01 00 00  returns 0x00 (0002ms, 1057ms total)
TA668 010:381 JLINK_ReadMem (0x20000042, 0x0014 Bytes, ...) -- CPU_ReadMem(64 bytes @ 0x20000040) -- Updating C cache (64 bytes @ 0x20000040) -- Read from C cache (20 bytes @ 0x20000042) - Data: 00 00 00 00 00 00 00 00 00 00 00 00 00 00 00 00 ...  returns 0x00 (0001ms, 1058ms total)
TA668 010:383 JLINK_ReadMem (0x20000013, 0x0001 Bytes, ...) -- CPU_ReadMem(64 bytes @ 0x20000000) -- Updating C cache (64 bytes @ 0x20000000) -- Read from C cache (1 bytes @ 0x20000013) - Data: 48  returns 0x00 (0002ms, 1060ms total)
TA668 010:385 JLINK_ReadMem (0x20000002, 0x0002 Bytes, ...) -- Read from C cache (2 bytes @ 0x20000002) - Data: F7 67  returns 0x00 (0000ms, 1060ms total)
TA668 010:385 JLINK_ReadMem (0x20000008, 0x0004 Bytes, ...) -- Read from C cache (4 bytes @ 0x20000008) - Data: C0 8A AB 3F  returns 0x00 (0000ms, 1060ms total)
TA970 012:383 JLINK_Step() -- CPU_ReadMem(64 bytes @ 0x00000280) -- Updating C cache (64 bytes @ 0x00000280) -- Read from C cache (2 bytes @ 0x000002B0) -- CPU_ReadMem(4 bytes @ 0xE0001004) -- Read from C cache (2 bytes @ 0x000002B2) -- Simulated  returns 0x00 (0004ms, 1064ms total)
TA970 012:387 JLINK_ReadReg(R15 (PC))  returns 0x00001306 (0000ms, 1064ms total)
TA970 012:387 JLINK_ReadReg(XPSR)  returns 0x01000000 (0000ms, 1064ms total)
TA970 012:387 JLINK_SetBPEx(Addr = 0x000002B0, Type = 0xFFFFFFF2)  returns 0x0000000B (0000ms, 1064ms total)
TA970 012:387 JLINK_Go() -- CPU_WriteMem(4 bytes @ 0xE0002000) -- CPU_WriteMem(4 bytes @ 0xE0001004) (0004ms, 1068ms total)
TA970 012:492 JLINK_IsHalted()  returns FALSE (0000ms, 1068ms total)
TA970 012:593 JLINK_IsHalted()  returns FALSE (0000ms, 1068ms total)
TA970 012:694 JLINK_IsHalted()  returns FALSE (0000ms, 1068ms total)
TA970 012:795 JLINK_IsHalted()  returns TRUE (0004ms, 1072ms total)
TA970 012:799 JLINK_Halt()  returns 0x00 (0000ms, 1068ms total)
TA970 012:799 JLINK_IsHalted()  returns TRUE (0000ms, 1068ms total)
TA970 012:799 JLINK_IsHalted()  returns TRUE (0000ms, 1068ms total)
TA970 012:799 JLINK_IsHalted()  returns TRUE (0000ms, 1068ms total)
TA970 012:799 JLINK_ReadReg(R15 (PC))  returns 0x000002B0 (0000ms, 1068ms total)
TA970 012:799 JLINK_ReadReg(XPSR)  returns 0x01000000 (0000ms, 1068ms total)
TA970 012:799 JLINK_ClrBPEx(BPHandle = 0x0000000B)  returns 0x00 (0000ms, 1068ms total)
TA970 012:799 JLINK_ReadMemU32(0xE000ED30, 0x0001 Items, ...) -- CPU_ReadMem(4 bytes @ 0xE000ED30) - Data: 03 00 00 00  returns 0x01 (0001ms, 1069ms total)
TA970 012:800 JLINK_ReadMemU32(0xE0001028, 0x0001 Items, ...) -- CPU_ReadMem(4 bytes @ 0xE0001028) - Data: 00 00 00 00  returns 0x01 (0001ms, 1070ms total)
TA970 012:801 JLINK_ReadMemU32(0xE0001038, 0x0001 Items, ...) -- CPU_ReadMem(4 bytes @ 0xE0001038) - Data: 00 00 00 00  returns 0x01 (0001ms, 1071ms total)
TA970 012:802 JLINK_ReadReg(R0)  returns 0x3FABBF8D (0000ms, 1071ms total)
TA970 012:802 JLINK_ReadReg(R1)  returns 0x20000008 (0000ms, 1071ms total)
TA970 012:802 JLINK_ReadReg(R2)  returns 0x0000007F (0000ms, 1071ms total)
TA970 012:802 JLINK_ReadReg(R3)  returns 0x15DFC651 (0000ms, 1071ms total)
TA970 012:802 JLINK_ReadReg(R4)  returns 0x46D02E00 (0000ms, 1071ms total)
TA970 012:802 JLINK_ReadReg(R5)  returns 0x200000D0 (0000ms, 1071ms total)
TA970 012:802 JLINK_ReadReg(R6)  returns 0x999999A0 (0000ms, 1071ms total)
